!EI41,AV3629A,1.0.34
!Calibration ON (Full Solt 2-Port(Omit Isolation))
!Measurements: S11 S21 S12 S22
!Friday, August 03, 2012  13 : 43 
#Hz  S  MA  R 50.000
1.000000e+009  6.380841e-001  4.364039e+001  3.992479e-001  -9.287692e+001  4.049572e-001  -9.190525e+001  7.837272e-002  4.505407e+000
1.002000e+009  6.376397e-001  4.332635e+001  3.961563e-001  -9.251973e+001  4.024005e-001  -9.224393e+001  7.609410e-002  4.068628e+000
1.004000e+009  6.382460e-001  4.271063e+001  3.969292e-001  -9.333432e+001  4.020161e-001  -9.249064e+001  7.358500e-002  2.414306e+000
1.006000e+009  6.386232e-001  4.195218e+001  3.943438e-001  -9.306315e+001  4.008154e-001  -9.268485e+001  7.116793e-002  2.358239e+000
1.008000e+009  6.393200e-001  4.178975e+001  3.941741e-001  -9.365291e+001  4.002233e-001  -9.282119e+001  6.864554e-002  9.041561e-001
1.010000e+009  6.405856e-001  4.077353e+001  3.917409e-001  -9.323110e+001  3.998557e-001  -9.368909e+001  6.615332e-002  8.451148e-001
1.012000e+009  6.374403e-001  4.068742e+001  3.917597e-001  -9.415427e+001  3.981328e-001  -9.356386e+001  6.411356e-002  -1.800210e-001
1.014000e+009  6.398295e-001  3.975227e+001  3.884863e-001  -9.406741e+001  3.964636e-001  -9.418261e+001  6.168420e-002  -1.403998e+000
1.016000e+009  6.373112e-001  3.956351e+001  3.889713e-001  -9.425204e+001  3.965467e-001  -9.426731e+001  5.843242e-002  -1.714560e+000
1.018000e+009  6.414058e-001  3.882920e+001  3.847534e-001  -9.465501e+001  3.929664e-001  -9.475930e+001  5.703054e-002  -2.419437e+000
1.020000e+009  6.370586e-001  3.860801e+001  3.829187e-001  -9.447213e+001  3.919010e-001  -9.479685e+001  5.488523e-002  -3.748332e+000
1.022000e+009  6.376072e-001  3.814346e+001  3.807930e-001  -9.455680e+001  3.906472e-001  -9.526853e+001  5.290615e-002  -4.563416e+000
1.024000e+009  6.385781e-001  3.704865e+001  3.818794e-001  -9.498286e+001  3.872961e-001  -9.576863e+001  5.079091e-002  -5.863223e+000
1.026000e+009  6.374043e-001  3.662683e+001  3.803620e-001  -9.498296e+001  3.860118e-001  -9.597530e+001  4.890269e-002  -6.985576e+000
1.028000e+009  6.373045e-001  3.642295e+001  3.750796e-001  -9.509219e+001  3.843049e-001  -9.617685e+001  4.550641e-002  -8.836860e+000
1.030000e+009  6.359762e-001  3.589025e+001  3.739725e-001  -9.520332e+001  3.821095e-001  -9.620188e+001  4.515692e-002  -9.134961e+000
1.032000e+009  6.381731e-001  3.538472e+001  3.728851e-001  -9.541377e+001  3.802190e-001  -9.686069e+001  4.240457e-002  -1.064434e+001
1.034000e+009  6.355724e-001  3.475157e+001  3.706144e-001  -9.535494e+001  3.762441e-001  -9.710376e+001  4.088670e-002  -1.163741e+001
1.036000e+009  6.390258e-001  3.420646e+001  3.676404e-001  -9.563288e+001  3.730595e-001  -9.735294e+001  3.743563e-002  -1.396644e+001
1.038000e+009  6.374102e-001  3.369865e+001  3.660531e-001  -9.587584e+001  3.689467e-001  -9.753427e+001  3.524403e-002  -1.677169e+001
1.040000e+009  6.300556e-001  3.306866e+001  3.636596e-001  -9.568748e+001  3.690050e-001  -9.781111e+001  3.375476e-002  -1.670118e+001
1.042000e+009  6.351830e-001  3.244970e+001  3.612186e-001  -9.613121e+001  3.633993e-001  -9.813814e+001  3.186230e-002  -1.836414e+001
1.044000e+009  6.352565e-001  3.184971e+001  3.600355e-001  -9.610245e+001  3.635747e-001  -9.831522e+001  2.862598e-002  -2.177243e+001
1.046000e+009  6.342685e-001  3.163498e+001  3.597675e-001  -9.627826e+001  3.578295e-001  -9.851437e+001  2.619104e-002  -2.217029e+001
1.048000e+009  6.331720e-001  3.091501e+001  3.569260e-001  -9.629393e+001  3.589167e-001  -9.848516e+001  2.507356e-002  -2.725835e+001
1.050000e+009  6.341296e-001  3.058431e+001  3.559310e-001  -9.650365e+001  3.532183e-001  -9.871487e+001  2.256690e-002  -2.777482e+001
1.052000e+009  6.329922e-001  2.969524e+001  3.534714e-001  -9.649888e+001  3.530943e-001  -9.861557e+001  2.045233e-002  -3.111854e+001
1.054000e+009  6.287932e-001  2.904666e+001  3.505422e-001  -9.672181e+001  3.481106e-001  -9.889201e+001  1.736902e-002  -3.678214e+001
1.056000e+009  6.314848e-001  2.830966e+001  3.497603e-001  -9.715325e+001  3.462143e-001  -9.870408e+001  1.685049e-002  -3.916965e+001
1.058000e+009  6.295745e-001  2.792225e+001  3.473892e-001  -9.699087e+001  3.428435e-001  -9.895916e+001  1.382302e-002  -4.515628e+001
1.060000e+009  6.280607e-001  2.714224e+001  3.459688e-001  -9.732393e+001  3.393263e-001  -9.872727e+001  1.316496e-002  -4.881158e+001
1.062000e+009  6.308280e-001  2.656596e+001  3.444319e-001  -9.736403e+001  3.364984e-001  -9.861595e+001  1.160196e-002  -6.080447e+001
1.064000e+009  6.288734e-001  2.601502e+001  3.428659e-001  -9.731690e+001  3.344373e-001  -9.869522e+001  8.432360e-003  -8.192268e+001
1.066000e+009  6.263362e-001  2.544100e+001  3.391137e-001  -9.731606e+001  3.322044e-001  -9.842793e+001  9.887590e-003  -8.333127e+001
1.068000e+009  6.303473e-001  2.499237e+001  3.405214e-001  -9.746845e+001  3.302899e-001  -9.871558e+001  9.872089e-003  -9.827861e+001
1.070000e+009  6.290036e-001  2.432415e+001  3.369936e-001  -9.741431e+001  3.280273e-001  -9.843562e+001  9.791329e-003  -1.189379e+002
1.072000e+009  6.284113e-001  2.375612e+001  3.341138e-001  -9.750163e+001  3.246393e-001  -9.820841e+001  1.089196e-002  -1.248363e+002
1.074000e+009  6.268440e-001  2.319534e+001  3.325289e-001  -9.758754e+001  3.214203e-001  -9.804126e+001  1.163459e-002  -1.376541e+002
1.076000e+009  6.268216e-001  2.268968e+001  3.324016e-001  -9.738683e+001  3.213611e-001  -9.816918e+001  1.300573e-002  -1.487649e+002
1.078000e+009  6.253321e-001  2.203954e+001  3.296327e-001  -9.759049e+001  3.195728e-001  -9.786963e+001  1.374299e-002  -1.558064e+002
1.080000e+009  6.240788e-001  2.150248e+001  3.272162e-001  -9.760077e+001  3.156794e-001  -9.767308e+001  1.727613e-002  -1.585870e+002
1.082000e+009  6.261503e-001  2.075626e+001  3.260660e-001  -9.743794e+001  3.153889e-001  -9.731698e+001  1.777204e-002  -1.636127e+002
1.084000e+009  6.216128e-001  2.027986e+001  3.232937e-001  -9.750086e+001  3.133035e-001  -9.739645e+001  2.122839e-002  -1.679103e+002
1.086000e+009  6.222869e-001  1.964643e+001  3.214494e-001  -9.769753e+001  3.105860e-001  -9.720998e+001  2.285574e-002  -1.688868e+002
1.088000e+009  6.205646e-001  1.888702e+001  3.184657e-001  -9.756612e+001  3.096606e-001  -9.716070e+001  2.302358e-002  -1.734273e+002
1.090000e+009  6.220307e-001  1.848331e+001  3.171225e-001  -9.723475e+001  3.074675e-001  -9.677559e+001  2.580193e-002  -1.759804e+002
1.092000e+009  6.184751e-001  1.783528e+001  3.156937e-001  -9.750539e+001  3.063370e-001  -9.691337e+001  2.926104e-002  -1.798694e+002
1.094000e+009  6.201525e-001  1.721347e+001  3.131479e-001  -9.716711e+001  3.037744e-001  -9.657163e+001  3.142752e-002  1.798250e+002
1.096000e+009  6.174058e-001  1.645836e+001  3.122922e-001  -9.737816e+001  3.025158e-001  -9.656137e+001  3.291098e-002  1.798188e+002
1.098000e+009  6.165007e-001  1.592944e+001  3.080209e-001  -9.732419e+001  3.023109e-001  -9.622544e+001  3.552291e-002  1.789525e+002
1.100000e+009  6.191874e-001  1.540076e+001  3.087690e-001  -9.742590e+001  3.004110e-001  -9.634244e+001  3.660444e-002  1.775782e+002
1.102000e+009  6.161671e-001  1.497535e+001  3.068134e-001  -9.702866e+001  2.988070e-001  -9.613748e+001  3.957324e-002  1.739194e+002
1.104000e+009  6.136178e-001  1.419172e+001  3.030913e-001  -9.709942e+001  2.984603e-001  -9.603215e+001  4.110785e-002  1.740354e+002
1.106000e+009  6.145226e-001  1.343437e+001  3.015270e-001  -9.707723e+001  2.966886e-001  -9.585869e+001  4.314055e-002  1.715051e+002
1.108000e+009  6.137364e-001  1.276965e+001  3.015683e-001  -9.670672e+001  2.955371e-001  -9.580320e+001  4.565810e-002  1.705093e+002
1.110000e+009  6.116073e-001  1.229510e+001  2.993406e-001  -9.651238e+001  2.940528e-001  -9.570539e+001  4.782855e-002  1.696804e+002
1.112000e+009  6.092237e-001  1.140737e+001  2.959730e-001  -9.679477e+001  2.945545e-001  -9.541127e+001  4.989954e-002  1.686974e+002
1.114000e+009  6.086951e-001  1.079068e+001  2.943354e-001  -9.680087e+001  2.926749e-001  -9.518227e+001  5.242046e-002  1.673791e+002
1.116000e+009  6.061912e-001  1.026435e+001  2.935989e-001  -9.625039e+001  2.913863e-001  -9.519862e+001  5.346176e-002  1.666771e+002
1.118000e+009  6.060282e-001  9.680699e+000  2.910387e-001  -9.608825e+001  2.895836e-001  -9.499692e+001  5.552720e-002  1.660158e+002
1.120000e+009  6.049397e-001  8.753228e+000  2.896297e-001  -9.609924e+001  2.891651e-001  -9.486705e+001  5.782049e-002  1.649434e+002
1.122000e+009  6.032041e-001  8.575053e+000  2.879196e-001  -9.538003e+001  2.877052e-001  -9.472474e+001  5.878359e-002  1.633842e+002
1.124000e+009  6.031836e-001  8.040542e+000  2.872224e-001  -9.545170e+001  2.871235e-001  -9.448090e+001  6.191718e-002  1.621449e+002
1.126000e+009  5.994244e-001  7.218537e+000  2.844325e-001  -9.530089e+001  2.849979e-001  -9.418391e+001  6.439492e-002  1.611226e+002
1.128000e+009  5.999024e-001  6.661970e+000  2.834947e-001  -9.471490e+001  2.857748e-001  -9.420893e+001  6.633402e-002  1.606035e+002
1.130000e+009  5.978330e-001  5.994886e+000  2.811688e-001  -9.490031e+001  2.828232e-001  -9.401141e+001  6.841598e-002  1.591349e+002
1.132000e+009  5.971645e-001  5.553181e+000  2.790040e-001  -9.423856e+001  2.832791e-001  -9.365788e+001  7.076558e-002  1.595046e+002
1.134000e+009  5.961239e-001  4.420677e+000  2.784325e-001  -9.445882e+001  2.817293e-001  -9.342266e+001  7.225904e-002  1.586239e+002
1.136000e+009  5.940193e-001  4.127561e+000  2.759858e-001  -9.384545e+001  2.799184e-001  -9.315376e+001  7.429282e-002  1.571677e+002
1.138000e+009  5.945724e-001  3.469354e+000  2.749914e-001  -9.378218e+001  2.785176e-001  -9.323508e+001  7.658255e-002  1.566986e+002
1.140000e+009  5.918777e-001  2.464108e+000  2.743541e-001  -9.357411e+001  2.759591e-001  -9.290624e+001  7.772013e-002  1.554342e+002
1.142000e+009  5.920882e-001  1.861377e+000  2.720272e-001  -9.310551e+001  2.756638e-001  -9.254127e+001  7.961391e-002  1.560422e+002
1.144000e+009  5.874615e-001  1.319498e+000  2.720252e-001  -9.314836e+001  2.765286e-001  -9.256860e+001  8.224783e-002  1.546946e+002
1.146000e+009  5.877661e-001  5.481785e-001  2.705038e-001  -9.276764e+001  2.749488e-001  -9.230436e+001  8.386101e-002  1.534554e+002
1.148000e+009  5.863339e-001  3.584723e-002  2.696866e-001  -9.241340e+001  2.717453e-001  -9.210651e+001  8.511195e-002  1.531043e+002
1.150000e+009  5.864965e-001  -4.557017e-001  2.676739e-001  -9.199632e+001  2.718571e-001  -9.182078e+001  8.719869e-002  1.526559e+002
1.152000e+009  5.810819e-001  -1.225409e+000  2.674295e-001  -9.170932e+001  2.716601e-001  -9.134782e+001  8.942276e-002  1.518382e+002
1.154000e+009  5.835115e-001  -1.915732e+000  2.669802e-001  -9.122219e+001  2.705528e-001  -9.141636e+001  9.097310e-002  1.506047e+002
1.156000e+009  5.784018e-001  -2.399303e+000  2.655091e-001  -9.093885e+001  2.670379e-001  -9.073162e+001  9.271097e-002  1.492374e+002
1.158000e+009  5.792978e-001  -3.205819e+000  2.642957e-001  -9.046643e+001  2.681655e-001  -9.054119e+001  9.452834e-002  1.489383e+002
1.160000e+009  5.757993e-001  -3.760099e+000  2.651758e-001  -9.003699e+001  2.653526e-001  -9.034569e+001  9.692640e-002  1.488200e+002
1.162000e+009  5.751644e-001  -4.544912e+000  2.634156e-001  -8.978062e+001  2.667608e-001  -8.984569e+001  9.791716e-002  1.477352e+002
1.164000e+009  5.709743e-001  -5.092490e+000  2.626876e-001  -8.939487e+001  2.638744e-001  -8.941968e+001  9.978500e-002  1.474720e+002
1.166000e+009  5.709305e-001  -5.931606e+000  2.619226e-001  -8.886570e+001  2.653608e-001  -8.911084e+001  1.000605e-001  1.463882e+002
1.168000e+009  5.683262e-001  -6.524592e+000  2.625332e-001  -8.829193e+001  2.634536e-001  -8.871816e+001  1.025696e-001  1.455838e+002
1.170000e+009  5.669525e-001  -7.291591e+000  2.613817e-001  -8.805807e+001  2.618920e-001  -8.849515e+001  1.048599e-001  1.444720e+002
1.172000e+009  5.641343e-001  -7.718548e+000  2.610075e-001  -8.734669e+001  2.619692e-001  -8.828214e+001  1.066948e-001  1.436673e+002
1.174000e+009  5.630268e-001  -8.521451e+000  2.605621e-001  -8.709184e+001  2.603143e-001  -8.795197e+001  1.077176e-001  1.431710e+002
1.176000e+009  5.592049e-001  -9.106566e+000  2.608192e-001  -8.657458e+001  2.609428e-001  -8.758811e+001  1.100030e-001  1.423570e+002
1.178000e+009  5.593850e-001  -9.985014e+000  2.592938e-001  -8.623447e+001  2.619877e-001  -8.713065e+001  1.103057e-001  1.419256e+002
1.180000e+009  5.552773e-001  -1.064310e+001  2.600745e-001  -8.593594e+001  2.604460e-001  -8.626085e+001  1.121586e-001  1.406567e+002
1.182000e+009  5.548026e-001  -1.122787e+001  2.601908e-001  -8.518982e+001  2.595256e-001  -8.637971e+001  1.143332e-001  1.403397e+002
1.184000e+009  5.527273e-001  -1.203654e+001  2.603932e-001  -8.461983e+001  2.583140e-001  -8.602054e+001  1.158384e-001  1.400932e+002
1.186000e+009  5.528073e-001  -1.264467e+001  2.592437e-001  -8.448229e+001  2.596600e-001  -8.523322e+001  1.166627e-001  1.390623e+002
1.188000e+009  5.497091e-001  -1.340512e+001  2.594833e-001  -8.400320e+001  2.598415e-001  -8.473489e+001  1.183321e-001  1.384940e+002
1.190000e+009  5.459055e-001  -1.393065e+001  2.612745e-001  -8.333517e+001  2.587304e-001  -8.462486e+001  1.194974e-001  1.375706e+002
1.192000e+009  5.445905e-001  -1.469282e+001  2.619647e-001  -8.287599e+001  2.590107e-001  -8.408477e+001  1.217584e-001  1.372820e+002
1.194000e+009  5.425248e-001  -1.541124e+001  2.612365e-001  -8.276257e+001  2.595558e-001  -8.339738e+001  1.230752e-001  1.360906e+002
1.196000e+009  5.392758e-001  -1.609220e+001  2.605976e-001  -8.245077e+001  2.584370e-001  -8.301714e+001  1.246848e-001  1.353845e+002
1.198000e+009  5.390776e-001  -1.654622e+001  2.613714e-001  -8.170234e+001  2.592982e-001  -8.261053e+001  1.256333e-001  1.349702e+002
1.200000e+009  5.351042e-001  -1.744262e+001  2.631265e-001  -8.159440e+001  2.598566e-001  -8.198932e+001  1.266226e-001  1.342673e+002
1.202000e+009  5.334122e-001  -1.818109e+001  2.629916e-001  -8.096659e+001  2.607448e-001  -8.182925e+001  1.284468e-001  1.331160e+002
1.204000e+009  5.302538e-001  -1.890102e+001  2.636274e-001  -8.077838e+001  2.610913e-001  -8.111608e+001  1.292037e-001  1.329680e+002
1.206000e+009  5.292298e-001  -1.956117e+001  2.643828e-001  -8.016943e+001  2.611677e-001  -8.036060e+001  1.300160e-001  1.323122e+002
1.208000e+009  5.259207e-001  -2.023418e+001  2.662395e-001  -8.005727e+001  2.621499e-001  -8.051115e+001  1.320044e-001  1.317467e+002
1.210000e+009  5.248100e-001  -2.088464e+001  2.664667e-001  -7.945402e+001  2.624945e-001  -7.965721e+001  1.326681e-001  1.316031e+002
1.212000e+009  5.230782e-001  -2.163714e+001  2.682394e-001  -7.912419e+001  2.646704e-001  -7.946936e+001  1.348874e-001  1.306176e+002
1.214000e+009  5.213569e-001  -2.233688e+001  2.687650e-001  -7.885719e+001  2.658624e-001  -7.875213e+001  1.363832e-001  1.294660e+002
1.216000e+009  5.181991e-001  -2.287648e+001  2.705886e-001  -7.845589e+001  2.670659e-001  -7.856239e+001  1.365847e-001  1.282810e+002
1.218000e+009  5.149568e-001  -2.358099e+001  2.702393e-001  -7.821514e+001  2.679628e-001  -7.809349e+001  1.384862e-001  1.280595e+002
1.220000e+009  5.141317e-001  -2.433557e+001  2.721744e-001  -7.781985e+001  2.694236e-001  -7.761695e+001  1.395839e-001  1.277366e+002
1.222000e+009  5.109588e-001  -2.501594e+001  2.743617e-001  -7.751172e+001  2.710937e-001  -7.734305e+001  1.408073e-001  1.268143e+002
1.224000e+009  5.064724e-001  -2.584254e+001  2.752124e-001  -7.693502e+001  2.727823e-001  -7.698686e+001  1.416632e-001  1.265319e+002
1.226000e+009  5.050048e-001  -2.612664e+001  2.758583e-001  -7.676178e+001  2.734870e-001  -7.648171e+001  1.431667e-001  1.263761e+002
1.228000e+009  5.030981e-001  -2.677815e+001  2.784805e-001  -7.649534e+001  2.748000e-001  -7.608301e+001  1.436114e-001  1.255449e+002
1.230000e+009  5.027783e-001  -2.790919e+001  2.788881e-001  -7.590368e+001  2.775771e-001  -7.604051e+001  1.455796e-001  1.242169e+002
1.232000e+009  4.980927e-001  -2.849328e+001  2.804716e-001  -7.569826e+001  2.792702e-001  -7.558654e+001  1.463934e-001  1.236353e+002
1.234000e+009  4.954509e-001  -2.904757e+001  2.819870e-001  -7.561959e+001  2.806024e-001  -7.517731e+001  1.466226e-001  1.226741e+002
1.236000e+009  4.919497e-001  -2.966999e+001  2.831376e-001  -7.539146e+001  2.829040e-001  -7.491292e+001  1.471943e-001  1.225048e+002
1.238000e+009  4.936187e-001  -3.046479e+001  2.858985e-001  -7.488790e+001  2.854328e-001  -7.456451e+001  1.490086e-001  1.217255e+002
1.240000e+009  4.880759e-001  -3.096538e+001  2.863015e-001  -7.503784e+001  2.870277e-001  -7.460436e+001  1.499960e-001  1.213497e+002
1.242000e+009  4.887289e-001  -3.194560e+001  2.889969e-001  -7.428623e+001  2.893898e-001  -7.407746e+001  1.525339e-001  1.208174e+002
1.244000e+009  4.850676e-001  -3.261538e+001  2.902665e-001  -7.460722e+001  2.898294e-001  -7.413654e+001  1.522322e-001  1.194809e+002
1.246000e+009  4.791832e-001  -3.304146e+001  2.919118e-001  -7.399134e+001  2.926374e-001  -7.353958e+001  1.522818e-001  1.198212e+002
1.248000e+009  4.811495e-001  -3.391744e+001  2.943319e-001  -7.404984e+001  2.932404e-001  -7.372334e+001  1.531459e-001  1.182200e+002
1.250000e+009  4.758468e-001  -3.439790e+001  2.957787e-001  -7.360771e+001  2.979777e-001  -7.338636e+001  1.531795e-001  1.185124e+002
1.252000e+009  4.739631e-001  -3.513870e+001  2.980442e-001  -7.369675e+001  2.987594e-001  -7.311629e+001  1.563965e-001  1.173370e+002
1.254000e+009  4.693847e-001  -3.566441e+001  3.004602e-001  -7.313692e+001  3.007663e-001  -7.293929e+001  1.560547e-001  1.166688e+002
1.256000e+009  4.687352e-001  -3.658937e+001  3.019518e-001  -7.334631e+001  3.023961e-001  -7.270976e+001  1.566455e-001  1.164842e+002
1.258000e+009  4.678611e-001  -3.720895e+001  3.057038e-001  -7.274257e+001  3.036859e-001  -7.275627e+001  1.572843e-001  1.155746e+002
1.260000e+009  4.637777e-001  -3.786389e+001  3.079637e-001  -7.265348e+001  3.067273e-001  -7.259454e+001  1.583439e-001  1.149433e+002
1.262000e+009  4.599370e-001  -3.859471e+001  3.079647e-001  -7.252573e+001  3.082409e-001  -7.247804e+001  1.584395e-001  1.142525e+002
1.264000e+009  4.571331e-001  -3.926881e+001  3.099657e-001  -7.250605e+001  3.113324e-001  -7.237866e+001  1.594802e-001  1.139740e+002
1.266000e+009  4.537691e-001  -3.853397e+001  3.182376e-001  -7.247853e+001  3.157562e-001  -7.332771e+001  1.581274e-001  1.127997e+002
1.268000e+009  4.523356e-001  -4.050493e+001  3.165986e-001  -7.200641e+001  3.138345e-001  -7.216738e+001  1.609824e-001  1.124066e+002
1.270000e+009  4.495387e-001  -4.120696e+001  3.170292e-001  -7.191971e+001  3.160200e-001  -7.228478e+001  1.614784e-001  1.119416e+002
1.272000e+009  4.467424e-001  -4.197368e+001  3.191825e-001  -7.173747e+001  3.185734e-001  -7.217321e+001  1.626481e-001  1.116059e+002
1.274000e+009  4.470085e-001  -4.266843e+001  3.222128e-001  -7.147694e+001  3.201539e-001  -7.190663e+001  1.632570e-001  1.109880e+002
1.276000e+009  4.440436e-001  -4.348951e+001  3.252871e-001  -7.144899e+001  3.230319e-001  -7.204662e+001  1.637126e-001  1.105741e+002
1.278000e+009  4.399856e-001  -4.396737e+001  3.258694e-001  -7.152750e+001  3.253518e-001  -7.184058e+001  1.638391e-001  1.096481e+002
1.280000e+009  4.385461e-001  -4.456489e+001  3.296138e-001  -7.132054e+001  3.273920e-001  -7.170893e+001  1.638797e-001  1.094353e+002
1.282000e+009  4.352317e-001  -4.537163e+001  3.314139e-001  -7.128522e+001  3.295901e-001  -7.166510e+001  1.652943e-001  1.084877e+002
1.284000e+009  4.333277e-001  -4.600519e+001  3.338463e-001  -7.130201e+001  3.313233e-001  -7.158274e+001  1.654513e-001  1.079917e+002
