!EI41,AV3629A,1.0.34
!Calibration ON (Full Solt 2-Port(Omit Isolation))
!Measurements: S11 S21 S12 S22
!Friday, August 03, 2012  13 : 41 
#Hz  S  MA  R 50.000
1.000000e+009  6.342628e-001  4.391464e+001  2.543244e-001  -3.399796e+001  2.618241e-001  -3.236513e+001  6.286639e-001  4.371042e+001
1.002000e+009  6.346141e-001  4.314149e+001  2.582797e-001  -3.310766e+001  2.615020e-001  -3.221347e+001  6.303819e-001  4.301629e+001
1.004000e+009  6.359341e-001  4.285808e+001  2.626860e-001  -3.321864e+001  2.665289e-001  -3.210348e+001  6.298723e-001  4.263969e+001
1.006000e+009  6.348258e-001  4.243814e+001  2.623998e-001  -3.260052e+001  2.690977e-001  -3.183068e+001  6.309462e-001  4.215594e+001
1.008000e+009  6.340654e-001  4.200379e+001  2.662644e-001  -3.243522e+001  2.727358e-001  -3.198662e+001  6.276344e-001  4.184930e+001
1.010000e+009  6.371008e-001  4.147239e+001  2.677746e-001  -3.209098e+001  2.747602e-001  -3.195742e+001  6.303202e-001  4.107688e+001
1.012000e+009  6.324173e-001  4.103193e+001  2.723911e-001  -3.198059e+001  2.797895e-001  -3.160237e+001  6.267567e-001  4.086116e+001
1.014000e+009  6.349182e-001  4.031591e+001  2.732605e-001  -3.175904e+001  2.821314e-001  -3.192698e+001  6.309430e-001  3.998189e+001
1.016000e+009  6.328297e-001  3.980828e+001  2.774615e-001  -3.151270e+001  2.864584e-001  -3.161713e+001  6.257864e-001  3.952650e+001
1.018000e+009  6.367106e-001  3.938534e+001  2.794279e-001  -3.156930e+001  2.871773e-001  -3.139933e+001  6.300241e-001  3.900270e+001
1.020000e+009  6.326174e-001  3.861909e+001  2.841307e-001  -3.142826e+001  2.927650e-001  -3.146745e+001  6.270418e-001  3.826786e+001
1.022000e+009  6.331263e-001  3.812685e+001  2.865212e-001  -3.125209e+001  2.937156e-001  -3.174910e+001  6.251333e-001  3.789476e+001
1.024000e+009  6.362699e-001  3.750261e+001  2.900104e-001  -3.108204e+001  2.959739e-001  -3.122794e+001  6.293849e-001  3.733604e+001
1.026000e+009  6.358255e-001  3.696000e+001  2.940210e-001  -3.086186e+001  2.977591e-001  -3.134556e+001  6.287947e-001  3.677946e+001
1.028000e+009  6.345030e-001  3.644075e+001  2.941940e-001  -3.083138e+001  3.008385e-001  -3.166064e+001  6.250487e-001  3.625526e+001
1.030000e+009  6.339584e-001  3.577905e+001  2.988668e-001  -3.081862e+001  3.045275e-001  -3.174022e+001  6.267547e-001  3.548092e+001
1.032000e+009  6.338272e-001  3.547334e+001  3.010701e-001  -3.083012e+001  3.097330e-001  -3.156422e+001  6.275690e-001  3.496044e+001
1.034000e+009  6.358258e-001  3.495928e+001  3.057254e-001  -3.046285e+001  3.106166e-001  -3.191763e+001  6.277084e-001  3.446800e+001
1.036000e+009  6.346932e-001  3.453339e+001  3.065285e-001  -3.088125e+001  3.107697e-001  -3.154588e+001  6.260607e-001  3.388462e+001
1.038000e+009  6.358067e-001  3.401430e+001  3.099933e-001  -3.085532e+001  3.122592e-001  -3.179885e+001  6.248790e-001  3.321077e+001
1.040000e+009  6.290380e-001  3.338620e+001  3.129371e-001  -3.053290e+001  3.170267e-001  -3.183571e+001  6.250557e-001  3.262286e+001
1.042000e+009  6.339154e-001  3.262425e+001  3.158917e-001  -3.069809e+001  3.175991e-001  -3.182821e+001  6.264733e-001  3.221561e+001
1.044000e+009  6.293461e-001  3.201637e+001  3.187177e-001  -3.047911e+001  3.211888e-001  -3.191859e+001  6.256398e-001  3.157666e+001
1.046000e+009  6.296684e-001  3.150654e+001  3.228352e-001  -3.086200e+001  3.215278e-001  -3.190777e+001  6.238651e-001  3.112562e+001
1.048000e+009  6.267577e-001  3.103555e+001  3.255278e-001  -3.066129e+001  3.268413e-001  -3.162762e+001  6.255527e-001  3.063384e+001
1.050000e+009  6.319822e-001  3.036284e+001  3.292553e-001  -3.087439e+001  3.278814e-001  -3.197039e+001  6.219536e-001  2.994855e+001
1.052000e+009  6.282490e-001  2.974948e+001  3.327136e-001  -3.087925e+001  3.317176e-001  -3.148024e+001  6.253008e-001  2.975913e+001
1.054000e+009  6.312013e-001  2.912848e+001  3.359309e-001  -3.081540e+001  3.339608e-001  -3.185284e+001  6.236647e-001  2.907838e+001
1.056000e+009  6.262971e-001  2.855646e+001  3.387127e-001  -3.105623e+001  3.360559e-001  -3.169054e+001  6.181597e-001  2.829354e+001
1.058000e+009  6.276549e-001  2.806741e+001  3.424404e-001  -3.090641e+001  3.389151e-001  -3.166739e+001  6.241648e-001  2.797456e+001
1.060000e+009  6.259942e-001  2.719866e+001  3.452417e-001  -3.109095e+001  3.404123e-001  -3.190176e+001  6.179582e-001  2.673239e+001
1.062000e+009  6.262146e-001  2.679636e+001  3.482805e-001  -3.101164e+001  3.438927e-001  -3.167490e+001  6.200618e-001  2.617950e+001
1.064000e+009  6.269192e-001  2.620344e+001  3.525940e-001  -3.107223e+001  3.464444e-001  -3.195138e+001  6.165071e-001  2.617158e+001
1.066000e+009  6.256303e-001  2.569803e+001  3.552251e-001  -3.121818e+001  3.474394e-001  -3.166675e+001  6.159296e-001  2.560230e+001
1.068000e+009  6.262899e-001  2.509587e+001  3.586175e-001  -3.120685e+001  3.528914e-001  -3.175510e+001  6.210897e-001  2.470050e+001
1.070000e+009  6.268197e-001  2.452816e+001  3.618166e-001  -3.133355e+001  3.566618e-001  -3.156830e+001  6.185605e-001  2.405997e+001
1.072000e+009  6.256048e-001  2.404798e+001  3.655434e-001  -3.146877e+001  3.570755e-001  -3.158626e+001  6.147166e-001  2.338374e+001
1.074000e+009  6.229152e-001  2.338331e+001  3.694874e-001  -3.165359e+001  3.598038e-001  -3.155804e+001  6.127998e-001  2.305284e+001
1.076000e+009  6.254599e-001  2.282148e+001  3.738879e-001  -3.164159e+001  3.673282e-001  -3.156413e+001  6.196249e-001  2.255157e+001
1.078000e+009  6.245631e-001  2.212492e+001  3.771800e-001  -3.200935e+001  3.700327e-001  -3.144908e+001  6.202999e-001  2.197478e+001
1.080000e+009  6.219852e-001  2.152937e+001  3.802000e-001  -3.191340e+001  3.719099e-001  -3.133371e+001  6.160182e-001  2.095518e+001
1.082000e+009  6.228143e-001  2.098845e+001  3.846172e-001  -3.191406e+001  3.760767e-001  -3.131743e+001  6.091589e-001  2.048203e+001
1.084000e+009  6.199718e-001  2.026386e+001  3.877802e-001  -3.223317e+001  3.803318e-001  -3.128790e+001  6.158154e-001  2.021994e+001
1.086000e+009  6.193447e-001  1.975415e+001  3.921370e-001  -3.250999e+001  3.836378e-001  -3.146671e+001  6.065335e-001  1.912038e+001
1.088000e+009  6.186171e-001  1.903010e+001  3.932559e-001  -3.288419e+001  3.875431e-001  -3.146260e+001  6.139832e-001  1.900676e+001
1.090000e+009  6.183524e-001  1.861206e+001  3.988711e-001  -3.226464e+001  3.916364e-001  -3.158641e+001  6.061102e-001  1.793840e+001
1.092000e+009  6.159747e-001  1.794551e+001  4.032421e-001  -3.297986e+001  3.965747e-001  -3.152254e+001  6.114019e-001  1.745993e+001
1.094000e+009  6.171491e-001  1.733223e+001  4.063193e-001  -3.257009e+001  4.013785e-001  -3.159305e+001  6.063095e-001  1.662416e+001
1.096000e+009  6.144414e-001  1.667091e+001  4.114314e-001  -3.341735e+001  4.021413e-001  -3.164170e+001  6.083005e-001  1.625861e+001
1.098000e+009  6.128956e-001  1.614680e+001  4.112297e-001  -3.299331e+001  4.097977e-001  -3.174710e+001  6.053056e-001  1.539207e+001
1.100000e+009  6.127255e-001  1.538926e+001  4.218233e-001  -3.399124e+001  4.125894e-001  -3.208184e+001  6.037254e-001  1.463996e+001
1.102000e+009  6.117226e-001  1.501709e+001  4.238401e-001  -3.373401e+001  4.169782e-001  -3.228460e+001  6.029766e-001  1.403240e+001
1.104000e+009  6.095322e-001  1.410845e+001  4.267137e-001  -3.404276e+001  4.247939e-001  -3.222683e+001  6.023621e-001  1.368351e+001
1.106000e+009  6.105423e-001  1.344784e+001  4.301408e-001  -3.431887e+001  4.282065e-001  -3.241868e+001  6.028429e-001  1.320325e+001
1.108000e+009  6.085057e-001  1.286525e+001  4.321450e-001  -3.415071e+001  4.326376e-001  -3.263185e+001  6.034572e-001  1.232161e+001
1.110000e+009  6.075344e-001  1.253952e+001  4.356470e-001  -3.432294e+001  4.371405e-001  -3.296435e+001  6.023627e-001  1.174064e+001
1.112000e+009  6.070989e-001  1.141283e+001  4.441160e-001  -3.488807e+001  4.426792e-001  -3.292861e+001  5.997262e-001  1.103186e+001
1.114000e+009  6.058792e-001  1.092092e+001  4.460818e-001  -3.516609e+001  4.475188e-001  -3.328948e+001  5.984836e-001  1.054531e+001
1.116000e+009  6.020249e-001  1.057127e+001  4.452589e-001  -3.513232e+001  4.506158e-001  -3.366640e+001  5.971977e-001  1.003038e+001
1.118000e+009  6.021796e-001  9.777603e+000  4.504437e-001  -3.525253e+001  4.554485e-001  -3.385097e+001  5.962930e-001  9.286427e+000
1.120000e+009  6.027898e-001  8.885514e+000  4.568866e-001  -3.584141e+001  4.616696e-001  -3.391790e+001  5.914515e-001  8.676840e+000
1.122000e+009  6.014751e-001  8.757516e+000  4.561354e-001  -3.585433e+001  4.635355e-001  -3.438230e+001  5.949241e-001  7.974769e+000
1.124000e+009  6.009045e-001  7.805176e+000  4.655214e-001  -3.615581e+001  4.719476e-001  -3.464904e+001  5.890684e-001  7.191962e+000
1.126000e+009  5.976034e-001  7.258121e+000  4.652026e-001  -3.662389e+001  4.752232e-001  -3.508696e+001  5.921720e-001  6.773314e+000
1.128000e+009  5.978213e-001  6.460328e+000  4.729716e-001  -3.640987e+001  4.817899e-001  -3.518515e+001  5.879187e-001  5.956536e+000
1.130000e+009  5.967226e-001  6.066005e+000  4.742986e-001  -3.733211e+001  4.826396e-001  -3.572835e+001  5.883595e-001  5.372861e+000
1.132000e+009  5.949917e-001  5.277934e+000  4.802951e-001  -3.707991e+001  4.905818e-001  -3.583275e+001  5.852352e-001  4.721636e+000
1.134000e+009  5.939682e-001  4.736474e+000  4.814236e-001  -3.797910e+001  4.906915e-001  -3.632238e+001  5.853863e-001  4.098878e+000
1.136000e+009  5.922382e-001  4.099375e+000  4.886265e-001  -3.766686e+001  4.975726e-001  -3.650609e+001  5.837501e-001  3.383953e+000
1.138000e+009  5.900505e-001  3.490592e+000  4.898882e-001  -3.868935e+001  4.995756e-001  -3.719667e+001  5.821235e-001  2.741908e+000
1.140000e+009  5.899504e-001  2.685676e+000  4.961845e-001  -3.849590e+001  5.029520e-001  -3.778697e+001  5.799353e-001  2.290299e+000
1.142000e+009  5.879958e-001  2.103631e+000  4.978461e-001  -3.855616e+001  5.088665e-001  -3.776814e+001  5.809895e-001  1.443524e+000
1.144000e+009  5.839946e-001  1.495008e+000  5.037200e-001  -3.969394e+001  5.127351e-001  -3.844338e+001  5.763370e-001  8.399613e-001
1.146000e+009  5.841372e-001  9.093224e-001  5.059686e-001  -3.997822e+001  5.163335e-001  -3.887777e+001  5.744627e-001  4.857331e-001
1.148000e+009  5.832452e-001  2.635079e-001  5.121968e-001  -3.990277e+001  5.216838e-001  -3.934602e+001  5.763619e-001  -5.788363e-001
1.150000e+009  5.815293e-001  -3.149159e-001  5.154038e-001  -4.019035e+001  5.269443e-001  -3.955291e+001  5.756214e-001  -9.723769e-001
1.152000e+009  5.789020e-001  -1.103438e+000  5.211007e-001  -4.108546e+001  5.276859e-001  -4.014645e+001  5.687691e-001  -2.048060e+000
1.154000e+009  5.760503e-001  -1.746926e+000  5.259314e-001  -4.088790e+001  5.325213e-001  -4.080464e+001  5.673087e-001  -2.723553e+000
1.156000e+009  5.766867e-001  -2.299653e+000  5.265687e-001  -4.151240e+001  5.375981e-001  -4.055882e+001  5.708314e-001  -3.015840e+000
1.158000e+009  5.708444e-001  -3.142984e+000  5.332796e-001  -4.178719e+001  5.410730e-001  -4.153228e+001  5.642489e-001  -3.918723e+000
1.160000e+009  5.715608e-001  -3.710369e+000  5.363832e-001  -4.194756e+001  5.420937e-001  -4.142866e+001  5.676954e-001  -4.275016e+000
1.162000e+009  5.684740e-001  -4.346093e+000  5.387961e-001  -4.266935e+001  5.467350e-001  -4.221615e+001  5.601509e-001  -5.242932e+000
1.164000e+009  5.674658e-001  -5.091852e+000  5.418625e-001  -4.296475e+001  5.502839e-001  -4.215971e+001  5.652919e-001  -5.551631e+000
1.166000e+009  5.657297e-001  -5.870023e+000  5.463514e-001  -4.331713e+001  5.535701e-001  -4.312089e+001  5.561870e-001  -6.732012e+000
1.168000e+009  5.659571e-001  -6.255004e+000  5.502038e-001  -4.356549e+001  5.557525e-001  -4.331437e+001  5.566717e-001  -7.059743e+000
1.170000e+009  5.627161e-001  -7.209542e+000  5.541301e-001  -4.420037e+001  5.560769e-001  -4.380742e+001  5.529310e-001  -7.999038e+000
1.172000e+009  5.594930e-001  -7.685170e+000  5.562213e-001  -4.467673e+001  5.667204e-001  -4.427047e+001  5.567424e-001  -8.738214e+000
1.174000e+009  5.611753e-001  -8.335227e+000  5.593919e-001  -4.478774e+001  5.653184e-001  -4.500779e+001  5.497716e-001  -9.523628e+000
1.176000e+009  5.553449e-001  -8.893050e+000  5.648746e-001  -4.541462e+001  5.710336e-001  -4.489012e+001  5.496696e-001  -9.529184e+000
1.178000e+009  5.562456e-001  -9.708151e+000  5.646387e-001  -4.560152e+001  5.730104e-001  -4.549035e+001  5.460596e-001  -1.052569e+001
1.180000e+009  5.547259e-001  -1.034924e+001  5.698466e-001  -4.605727e+001  5.734322e-001  -4.577102e+001  5.427488e-001  -1.117655e+001
1.182000e+009  5.503204e-001  -1.106898e+001  5.752141e-001  -4.661642e+001  5.782616e-001  -4.618409e+001  5.435638e-001  -1.140620e+001
1.184000e+009  5.472624e-001  -1.178645e+001  5.767408e-001  -4.700344e+001  5.826294e-001  -4.648035e+001  5.426844e-001  -1.213609e+001
1.186000e+009  5.492387e-001  -1.236887e+001  5.762765e-001  -4.734016e+001  5.861124e-001  -4.698194e+001  5.409831e-001  -1.378785e+001
1.188000e+009  5.451348e-001  -1.306559e+001  5.802101e-001  -4.783676e+001  5.885925e-001  -4.741585e+001  5.370000e-001  -1.446285e+001
1.190000e+009  5.416461e-001  -1.372987e+001  5.869869e-001  -4.803648e+001  5.903069e-001  -4.754564e+001  5.360534e-001  -1.456733e+001
1.192000e+009  5.403904e-001  -1.447689e+001  5.911311e-001  -4.858780e+001  5.923394e-001  -4.801633e+001  5.337405e-001  -1.518732e+001
1.194000e+009  5.395839e-001  -1.512906e+001  5.881231e-001  -4.898555e+001  5.936016e-001  -4.826890e+001  5.310196e-001  -1.566307e+001
1.196000e+009  5.363301e-001  -1.572346e+001  5.877350e-001  -4.933539e+001  5.976994e-001  -4.881235e+001  5.302018e-001  -1.692874e+001
1.198000e+009  5.360230e-001  -1.624142e+001  5.941495e-001  -4.962954e+001  5.984906e-001  -4.938889e+001  5.278003e-001  -1.714111e+001
1.200000e+009  5.329791e-001  -1.705721e+001  5.927976e-001  -5.024696e+001  6.030255e-001  -4.945894e+001  5.277830e-001  -1.836680e+001
1.202000e+009  5.309138e-001  -1.792036e+001  5.977909e-001  -5.044855e+001  6.046770e-001  -5.000832e+001  5.226685e-001  -1.837540e+001
1.204000e+009  5.286682e-001  -1.847344e+001  5.985975e-001  -5.087385e+001  6.097564e-001  -5.030756e+001  5.242958e-001  -1.965103e+001
1.206000e+009  5.265553e-001  -1.924506e+001  6.019167e-001  -5.098358e+001  6.095787e-001  -5.041633e+001  5.175444e-001  -1.983581e+001
1.208000e+009  5.233591e-001  -1.983919e+001  6.031002e-001  -5.151933e+001  6.163869e-001  -5.140000e+001  5.214418e-001  -2.121323e+001
1.210000e+009  5.187278e-001  -2.083190e+001  6.082697e-001  -5.244194e+001  6.152704e-001  -5.137136e+001  5.137377e-001  -2.112548e+001
1.212000e+009  5.191882e-001  -2.109599e+001  6.094695e-001  -5.205717e+001  6.215946e-001  -5.204274e+001  5.120077e-001  -2.267458e+001
1.214000e+009  5.146189e-001  -2.191622e+001  6.125439e-001  -5.305564e+001  6.247243e-001  -5.198067e+001  5.082634e-001  -2.256384e+001
1.216000e+009  5.152494e-001  -2.254010e+001  6.147784e-001  -5.281181e+001  6.265853e-001  -5.272883e+001  5.113342e-001  -2.364917e+001
1.218000e+009  5.142173e-001  -2.330878e+001  6.161245e-001  -5.323491e+001  6.304019e-001  -5.310609e+001  5.034664e-001  -2.399838e+001
1.220000e+009  5.116400e-001  -2.389371e+001  6.206173e-001  -5.344860e+001  6.352792e-001  -5.330051e+001  5.036570e-001  -2.468307e+001
1.222000e+009  5.078570e-001  -2.462460e+001  6.214524e-001  -5.405529e+001  6.380160e-001  -5.378835e+001  5.022980e-001  -2.561268e+001
1.224000e+009  5.058308e-001  -2.542024e+001  6.244685e-001  -5.434008e+001  6.395856e-001  -5.420282e+001  4.992352e-001  -2.629148e+001
1.226000e+009  5.035464e-001  -2.592153e+001  6.291996e-001  -5.478061e+001  6.443414e-001  -5.446763e+001  4.970838e-001  -2.721617e+001
1.228000e+009  4.997352e-001  -2.652342e+001  6.325651e-001  -5.522152e+001  6.477784e-001  -5.487490e+001  4.933557e-001  -2.784505e+001
1.230000e+009  5.006720e-001  -2.699010e+001  6.324477e-001  -5.472138e+001  6.482863e-001  -5.546665e+001  4.917520e-001  -2.870411e+001
1.232000e+009  4.982734e-001  -2.802405e+001  6.352122e-001  -5.508447e+001  6.524039e-001  -5.578061e+001  4.901491e-001  -2.924833e+001
1.234000e+009  4.931546e-001  -2.851956e+001  6.417378e-001  -5.604718e+001  6.573469e-001  -5.611365e+001  4.851218e-001  -2.960880e+001
1.236000e+009  4.910688e-001  -2.923617e+001  6.420630e-001  -5.648697e+001  6.584627e-001  -5.651372e+001  4.843972e-001  -3.048020e+001
1.238000e+009  4.904685e-001  -2.950936e+001  6.460543e-001  -5.598232e+001  6.607616e-001  -5.690997e+001  4.838184e-001  -3.121889e+001
1.240000e+009  4.857053e-001  -3.062076e+001  6.509506e-001  -5.718693e+001  6.667800e-001  -5.760845e+001  4.767563e-001  -3.177146e+001
1.242000e+009  4.842808e-001  -3.140888e+001  6.510119e-001  -5.703482e+001  6.678970e-001  -5.780744e+001  4.774191e-001  -3.255613e+001
1.244000e+009  4.826835e-001  -3.223182e+001  6.570211e-001  -5.766891e+001  6.715427e-001  -5.837679e+001  4.738319e-001  -3.334863e+001
1.246000e+009  4.774240e-001  -3.272480e+001  6.577220e-001  -5.806087e+001  6.750891e-001  -5.874374e+001  4.725312e-001  -3.409417e+001
1.248000e+009  4.787856e-001  -3.328733e+001  6.617622e-001  -5.848802e+001  6.773413e-001  -5.900632e+001  4.701136e-001  -3.469408e+001
1.250000e+009  4.731575e-001  -3.369125e+001  6.629868e-001  -5.885862e+001  6.782475e-001  -5.949194e+001  4.672148e-001  -3.484698e+001
1.252000e+009  4.725602e-001  -3.460817e+001  6.686283e-001  -5.928055e+001  6.821085e-001  -6.002216e+001  4.664482e-001  -3.619469e+001
1.254000e+009  4.659214e-001  -3.519057e+001  6.709692e-001  -5.966974e+001  6.827129e-001  -6.058964e+001  4.611207e-001  -3.637498e+001
1.256000e+009  4.671220e-001  -3.605587e+001  6.742863e-001  -6.026065e+001  6.847758e-001  -6.083842e+001  4.611503e-001  -3.736722e+001
1.258000e+009  4.639734e-001  -3.659491e+001  6.818766e-001  -6.054507e+001  6.854811e-001  -6.163571e+001  4.561267e-001  -3.778882e+001
1.260000e+009  4.582453e-001  -3.732302e+001  6.838269e-001  -6.107401e+001  6.890222e-001  -6.213208e+001  4.523099e-001  -3.854973e+001
1.262000e+009  4.595912e-001  -3.784622e+001  6.824117e-001  -6.118513e+001  6.903033e-001  -6.232175e+001  4.534354e-001  -3.938886e+001
1.264000e+009  4.570617e-001  -3.864141e+001  6.860972e-001  -6.186233e+001  6.932302e-001  -6.278047e+001  4.513559e-001  -3.996806e+001
1.266000e+009  4.493651e-001  -3.948875e+001  7.110156e-001  -6.277543e+001  7.076390e-001  -6.234658e+001  4.535193e-001  -3.979284e+001
1.268000e+009  4.488487e-001  -3.986195e+001  6.956159e-001  -6.281456e+001  6.945257e-001  -6.389883e+001  4.447959e-001  -4.150830e+001
1.270000e+009  4.489301e-001  -4.071687e+001  6.955252e-001  -6.321586e+001  6.948415e-001  -6.416391e+001  4.407631e-001  -4.204028e+001
1.272000e+009  4.470816e-001  -4.142525e+001  6.962744e-001  -6.365067e+001  6.965539e-001  -6.473626e+001  4.377355e-001  -4.260115e+001
1.274000e+009  4.456345e-001  -4.208335e+001  7.020586e-001  -6.391780e+001  7.010087e-001  -6.506929e+001  4.355575e-001  -4.347466e+001
1.276000e+009  4.407747e-001  -4.279746e+001  7.054978e-001  -6.460873e+001  7.008924e-001  -6.513169e+001  4.336740e-001  -4.387839e+001
1.278000e+009  4.390638e-001  -4.304168e+001  7.017163e-001  -6.519703e+001  7.012349e-001  -6.568989e+001  4.300135e-001  -4.471807e+001
1.280000e+009  4.370954e-001  -4.400381e+001  7.071744e-001  -6.542977e+001  7.019599e-001  -6.589939e+001  4.299585e-001  -4.535227e+001
1.282000e+009  4.342095e-001  -4.442697e+001  7.075796e-001  -6.620728e+001  7.046148e-001  -6.693079e+001  4.253318e-001  -4.634952e+001
1.284000e+009  4.315422e-001  -4.521604e+001  7.096628e-001  -6.645072e+001  7.021812e-001  -6.672835e+001  4.237475e-001  -4.653086e+001
