!EI41,AV3629A,1.0.34
!Calibration ON (Full Solt 2-Port(Omit Isolation))
!Measurements: S11 S21 S12 S22
!Friday, August 03, 2012  13 : 37 
#Hz  S  MA  R 50.000
1.000000e+009  6.318271e-001  4.359282e+001  5.778835e-001  -1.672316e+002  5.887641e-001  -1.659638e+002  9.177340e-002  6.704634e+000
1.002000e+009  6.286123e-001  4.271419e+001  5.783269e-001  -1.671624e+002  5.879029e-001  -1.669875e+002  8.917335e-002  6.337316e+000
1.004000e+009  6.331885e-001  4.244743e+001  5.802912e-001  -1.678644e+002  5.864330e-001  -1.672942e+002  8.696975e-002  4.853663e+000
1.006000e+009  6.312288e-001  4.201357e+001  5.765517e-001  -1.683300e+002  5.917320e-001  -1.677552e+002  8.443557e-002  4.620062e+000
1.008000e+009  6.309050e-001  4.158907e+001  5.808708e-001  -1.686117e+002  5.903959e-001  -1.684344e+002  8.186333e-002  3.524986e+000
1.010000e+009  6.331812e-001  4.099828e+001  5.788457e-001  -1.694166e+002  5.928851e-001  -1.692997e+002  8.082708e-002  3.003608e+000
1.012000e+009  6.293466e-001  4.056135e+001  5.802395e-001  -1.695311e+002  5.899752e-001  -1.698378e+002  7.782589e-002  2.452633e+000
1.014000e+009  6.306882e-001  3.994785e+001  5.790842e-001  -1.702667e+002  5.942126e-001  -1.703775e+002  7.499989e-002  8.028245e-001
1.016000e+009  6.289536e-001  3.939103e+001  5.804891e-001  -1.704203e+002  5.926849e-001  -1.710288e+002  7.246366e-002  7.009372e-001
1.018000e+009  6.318886e-001  3.892371e+001  5.793611e-001  -1.716040e+002  5.928834e-001  -1.715711e+002  7.056548e-002  -3.657066e-001
1.020000e+009  6.285862e-001  3.823263e+001  5.782521e-001  -1.714237e+002  5.929241e-001  -1.722904e+002  6.724133e-002  -1.652996e-001
1.022000e+009  6.304085e-001  3.781511e+001  5.767311e-001  -1.719455e+002  5.949048e-001  -1.729097e+002  6.639839e-002  -2.028584e+000
1.024000e+009  6.312084e-001  3.693627e+001  5.815330e-001  -1.726891e+002  5.900149e-001  -1.734371e+002  6.449796e-002  -1.698511e+000
1.026000e+009  6.326411e-001  3.675156e+001  5.829639e-001  -1.730057e+002  5.904907e-001  -1.740574e+002  6.168470e-002  -3.981501e+000
1.028000e+009  6.325184e-001  3.636155e+001  5.794462e-001  -1.735078e+002  5.874515e-001  -1.744899e+002  5.933951e-002  -4.461550e+000
1.030000e+009  6.285904e-001  3.578462e+001  5.762152e-001  -1.739834e+002  5.892616e-001  -1.751912e+002  5.691991e-002  -5.083586e+000
1.032000e+009  6.309376e-001  3.505763e+001  5.781158e-001  -1.749435e+002  5.893124e-001  -1.760648e+002  5.458691e-002  -6.914082e+000
1.034000e+009  6.314714e-001  3.468889e+001  5.766227e-001  -1.751896e+002  5.828128e-001  -1.765003e+002  5.304993e-002  -7.267694e+000
1.036000e+009  6.283034e-001  3.416518e+001  5.753050e-001  -1.754275e+002  5.825524e-001  -1.771192e+002  4.973906e-002  -7.944497e+000
1.038000e+009  6.321058e-001  3.363039e+001  5.746159e-001  -1.764466e+002  5.797314e-001  -1.777436e+002  4.818307e-002  -1.000680e+001
1.040000e+009  6.280460e-001  3.291450e+001  5.712317e-001  -1.762463e+002  5.792052e-001  -1.783983e+002  4.637496e-002  -1.036245e+001
1.042000e+009  6.293441e-001  3.256346e+001  5.738647e-001  -1.768013e+002  5.768027e-001  -1.789177e+002  4.436782e-002  -1.222432e+001
1.044000e+009  6.279942e-001  3.178393e+001  5.684447e-001  -1.774540e+002  5.765352e-001  -1.796972e+002  4.104941e-002  -1.254908e+001
1.046000e+009  6.291986e-001  3.164292e+001  5.733315e-001  -1.779119e+002  5.733927e-001  -1.799247e+002  4.004529e-002  -1.601871e+001
1.048000e+009  6.261379e-001  3.114012e+001  5.733815e-001  -1.782393e+002  5.753810e-001  1.795776e+002  3.789513e-002  -1.619176e+001
1.050000e+009  6.280586e-001  3.023299e+001  5.704644e-001  -1.793456e+002  5.712352e-001  1.789581e+002  3.562823e-002  -1.813405e+001
1.052000e+009  6.253281e-001  2.990478e+001  5.741020e-001  -1.793584e+002  5.682304e-001  1.785858e+002  3.244365e-002  -1.879212e+001
1.054000e+009  6.271480e-001  2.921511e+001  5.702465e-001  1.796848e+002  5.669145e-001  1.779438e+002  3.019213e-002  -2.202492e+001
1.056000e+009  6.251518e-001  2.873810e+001  5.732039e-001  1.794735e+002  5.660384e-001  1.777056e+002  2.867402e-002  -2.363290e+001
1.058000e+009  6.234038e-001  2.806498e+001  5.706290e-001  1.786678e+002  5.637600e-001  1.770405e+002  2.547366e-002  -2.621531e+001
1.060000e+009  6.226563e-001  2.754234e+001  5.715340e-001  1.783801e+002  5.596684e-001  1.765583e+002  2.358454e-002  -2.783729e+001
1.062000e+009  6.238021e-001  2.644701e+001  5.720070e-001  1.776200e+002  5.577979e-001  1.764088e+002  2.238081e-002  -3.240156e+001
1.064000e+009  6.224249e-001  2.584176e+001  5.692273e-001  1.773783e+002  5.585950e-001  1.759793e+002  1.923725e-002  -3.542526e+001
1.066000e+009  6.215518e-001  2.525009e+001  5.674096e-001  1.766686e+002  5.559836e-001  1.755694e+002  1.862107e-002  -3.790278e+001
1.068000e+009  6.251174e-001  2.487256e+001  5.735258e-001  1.761785e+002  5.570992e-001  1.751203e+002  1.775926e-002  -4.753328e+001
1.070000e+009  6.237509e-001  2.416675e+001  5.708950e-001  1.758107e+002  5.569398e-001  1.747073e+002  1.463750e-002  -5.579944e+001
1.072000e+009  6.219338e-001  2.367368e+001  5.648669e-001  1.752220e+002  5.519728e-001  1.746390e+002  1.400523e-002  -5.773733e+001
1.074000e+009  6.216994e-001  2.301509e+001  5.671327e-001  1.745990e+002  5.515215e-001  1.740546e+002  1.169022e-002  -6.829035e+001
1.076000e+009  6.203994e-001  2.250171e+001  5.704612e-001  1.743024e+002  5.516148e-001  1.736142e+002  1.148170e-002  -7.997962e+001
1.078000e+009  6.198021e-001  2.192588e+001  5.692744e-001  1.737802e+002  5.490583e-001  1.733399e+002  1.084429e-002  -9.090395e+001
1.080000e+009  6.186625e-001  2.132882e+001  5.637563e-001  1.728249e+002  5.477898e-001  1.726505e+002  9.668540e-003  -1.067982e+002
1.082000e+009  6.191522e-001  2.061847e+001  5.671011e-001  1.728180e+002  5.499777e-001  1.728398e+002  1.130588e-002  -1.192576e+002
1.084000e+009  6.166043e-001  2.016612e+001  5.637820e-001  1.718243e+002  5.474734e-001  1.719044e+002  1.118352e-002  -1.286950e+002
1.086000e+009  6.157338e-001  1.958105e+001  5.665407e-001  1.714638e+002  5.467475e-001  1.718070e+002  1.335851e-002  -1.373091e+002
1.088000e+009  6.158622e-001  1.877310e+001  5.591709e-001  1.705666e+002  5.487100e-001  1.712650e+002  1.408679e-002  -1.442072e+002
1.090000e+009  6.150806e-001  1.828154e+001  5.649680e-001  1.705271e+002  5.469235e-001  1.710115e+002  1.669152e-002  -1.515676e+002
1.092000e+009  6.128661e-001  1.769602e+001  5.614284e-001  1.697248e+002  5.488962e-001  1.704716e+002  1.742566e-002  -1.602381e+002
1.094000e+009  6.133798e-001  1.701245e+001  5.626547e-001  1.694729e+002  5.467356e-001  1.702905e+002  2.016186e-002  -1.608689e+002
1.096000e+009  6.109081e-001  1.647175e+001  5.610624e-001  1.685075e+002  5.467840e-001  1.695353e+002  2.156000e-002  -1.656672e+002
1.098000e+009  6.098063e-001  1.577447e+001  5.589641e-001  1.682113e+002  5.470460e-001  1.693360e+002  2.420954e-002  -1.681550e+002
1.100000e+009  6.100023e-001  1.532077e+001  5.614679e-001  1.674534e+002  5.465147e-001  1.686557e+002  2.472938e-002  -1.708256e+002
1.102000e+009  6.086883e-001  1.485795e+001  5.594889e-001  1.670159e+002  5.485837e-001  1.682931e+002  2.803470e-002  -1.757448e+002
1.104000e+009  6.061499e-001  1.387114e+001  5.572607e-001  1.668275e+002  5.486907e-001  1.675451e+002  2.941383e-002  -1.760362e+002
1.106000e+009  6.063737e-001  1.312926e+001  5.549586e-001  1.661491e+002  5.475336e-001  1.672058e+002  3.106777e-002  -1.782261e+002
1.108000e+009  6.051684e-001  1.265669e+001  5.580198e-001  1.655845e+002  5.498527e-001  1.668572e+002  3.360198e-002  1.784557e+002
1.110000e+009  6.049779e-001  1.222332e+001  5.574126e-001  1.650439e+002  5.490882e-001  1.664525e+002  3.618026e-002  1.776756e+002
1.112000e+009  6.034441e-001  1.124565e+001  5.533643e-001  1.645256e+002  5.482061e-001  1.657663e+002  3.749963e-002  1.755731e+002
1.114000e+009  6.012673e-001  1.087564e+001  5.514988e-001  1.637920e+002  5.491031e-001  1.650879e+002  3.992267e-002  1.741372e+002
1.116000e+009  5.999836e-001  1.026403e+001  5.545598e-001  1.635917e+002  5.502015e-001  1.648493e+002  4.213867e-002  1.744016e+002
1.118000e+009  5.993437e-001  9.490283e+000  5.526282e-001  1.630386e+002  5.503987e-001  1.642494e+002  4.479373e-002  1.720331e+002
1.120000e+009  6.000390e-001  8.750134e+000  5.484208e-001  1.621555e+002  5.490237e-001  1.635126e+002  4.578170e-002  1.716354e+002
1.122000e+009  5.967547e-001  8.441651e+000  5.468559e-001  1.620541e+002  5.505166e-001  1.631649e+002  4.821309e-002  1.694765e+002
1.124000e+009  5.977032e-001  7.565665e+000  5.477342e-001  1.611884e+002  5.508622e-001  1.624248e+002  5.099137e-002  1.676188e+002
1.126000e+009  5.951040e-001  7.022596e+000  5.473589e-001  1.608337e+002  5.513584e-001  1.618774e+002  5.317551e-002  1.667252e+002
1.128000e+009  5.971601e-001  6.223457e+000  5.454792e-001  1.601856e+002  5.509453e-001  1.611070e+002  5.512279e-002  1.653580e+002
1.130000e+009  5.938705e-001  5.868285e+000  5.447114e-001  1.596243e+002  5.459129e-001  1.604789e+002  5.616482e-002  1.644670e+002
1.132000e+009  5.910659e-001  5.466451e+000  5.450480e-001  1.592811e+002  5.493203e-001  1.599243e+002  5.888385e-002  1.645197e+002
1.134000e+009  5.914920e-001  4.512472e+000  5.415957e-001  1.585423e+002  5.450236e-001  1.592848e+002  5.993038e-002  1.629768e+002
1.136000e+009  5.897421e-001  4.060734e+000  5.430314e-001  1.580573e+002  5.480374e-001  1.588961e+002  6.304052e-002  1.619671e+002
1.138000e+009  5.873345e-001  3.212762e+000  5.391096e-001  1.574963e+002  5.430262e-001  1.580154e+002  6.428636e-002  1.610685e+002
1.140000e+009  5.872241e-001  2.728314e+000  5.410486e-001  1.569729e+002  5.446507e-001  1.573649e+002  6.790466e-002  1.595337e+002
1.142000e+009  5.857435e-001  2.037716e+000  5.376317e-001  1.563997e+002  5.428512e-001  1.568032e+002  6.927041e-002  1.603933e+002
1.144000e+009  5.829012e-001  1.096585e+000  5.340679e-001  1.555555e+002  5.428493e-001  1.560920e+002  7.059036e-002  1.581183e+002
1.146000e+009  5.842780e-001  3.787459e-001  5.326918e-001  1.551422e+002  5.411751e-001  1.553232e+002  7.192882e-002  1.570834e+002
1.148000e+009  5.813803e-001  1.397056e-001  5.344130e-001  1.548856e+002  5.409678e-001  1.548595e+002  7.494058e-002  1.571199e+002
1.150000e+009  5.791920e-001  -5.446522e-001  5.325860e-001  1.542240e+002  5.391875e-001  1.541140e+002  7.708547e-002  1.567402e+002
1.152000e+009  5.797654e-001  -1.250761e+000  5.285930e-001  1.533399e+002  5.377388e-001  1.537174e+002  7.778592e-002  1.549228e+002
1.154000e+009  5.790542e-001  -2.170312e+000  5.295286e-001  1.530817e+002  5.355216e-001  1.528998e+002  7.990350e-002  1.542498e+002
1.156000e+009  5.751148e-001  -2.456277e+000  5.283781e-001  1.525577e+002  5.337257e-001  1.526318e+002  8.167777e-002  1.535603e+002
1.158000e+009  5.735973e-001  -3.249315e+000  5.250544e-001  1.520949e+002  5.329196e-001  1.520093e+002  8.278497e-002  1.525426e+002
1.160000e+009  5.717204e-001  -3.738203e+000  5.276629e-001  1.517498e+002  5.295644e-001  1.514720e+002  8.553365e-002  1.521228e+002
1.162000e+009  5.702460e-001  -4.589524e+000  5.252075e-001  1.506809e+002  5.277031e-001  1.506736e+002  8.629107e-002  1.515693e+002
1.164000e+009  5.645662e-001  -5.525997e+000  5.210961e-001  1.503847e+002  5.256997e-001  1.502910e+002  8.935734e-002  1.507816e+002
1.166000e+009  5.660213e-001  -6.050619e+000  5.215874e-001  1.495992e+002  5.262805e-001  1.494336e+002  9.066259e-002  1.491832e+002
1.168000e+009  5.658454e-001  -6.658230e+000  5.192025e-001  1.491522e+002  5.211925e-001  1.488864e+002  9.285642e-002  1.486059e+002
1.170000e+009  5.613589e-001  -7.340364e+000  5.172668e-001  1.489188e+002  5.200319e-001  1.484490e+002  9.412908e-002  1.479310e+002
1.172000e+009  5.594426e-001  -7.975215e+000  5.157095e-001  1.480075e+002  5.209318e-001  1.476929e+002  9.631920e-002  1.466675e+002
1.174000e+009  5.578096e-001  -8.526299e+000  5.147195e-001  1.479407e+002  5.162498e-001  1.469198e+002  9.797815e-002  1.464325e+002
1.176000e+009  5.552841e-001  -9.451323e+000  5.093438e-001  1.472184e+002  5.164742e-001  1.464435e+002  1.004000e-001  1.457182e+002
1.178000e+009  5.540693e-001  -9.983800e+000  5.111408e-001  1.467183e+002  5.153292e-001  1.458661e+002  1.010425e-001  1.448166e+002
1.180000e+009  5.517826e-001  -1.053068e+001  5.112376e-001  1.461120e+002  5.125494e-001  1.454686e+002  1.027395e-001  1.436221e+002
1.182000e+009  5.508252e-001  -1.152912e+001  5.098134e-001  1.452445e+002  5.082295e-001  1.447015e+002  1.048210e-001  1.438186e+002
1.184000e+009  5.498756e-001  -1.206234e+001  5.069372e-001  1.448117e+002  5.075427e-001  1.440576e+002  1.064900e-001  1.429366e+002
1.186000e+009  5.482007e-001  -1.270600e+001  5.062518e-001  1.441470e+002  5.050929e-001  1.436743e+002  1.077970e-001  1.418165e+002
1.188000e+009  5.454528e-001  -1.362580e+001  5.057545e-001  1.437091e+002  5.024647e-001  1.432341e+002  1.090829e-001  1.415852e+002
1.190000e+009  5.423703e-001  -1.406834e+001  5.022014e-001  1.436838e+002  4.992638e-001  1.423599e+002  1.106015e-001  1.405055e+002
1.192000e+009  5.400804e-001  -1.477438e+001  5.013146e-001  1.429458e+002  4.969766e-001  1.418087e+002  1.124094e-001  1.398710e+002
1.194000e+009  5.398435e-001  -1.549788e+001  5.016338e-001  1.419646e+002  4.941802e-001  1.416216e+002  1.141138e-001  1.390595e+002
1.196000e+009  5.356232e-001  -1.604866e+001  4.985302e-001  1.415626e+002  4.916260e-001  1.411436e+002  1.153935e-001  1.383137e+002
1.198000e+009  5.345697e-001  -1.672686e+001  4.942592e-001  1.411910e+002  4.923398e-001  1.401999e+002  1.169846e-001  1.375663e+002
1.200000e+009  5.311445e-001  -1.749843e+001  4.939883e-001  1.407280e+002  4.876234e-001  1.400982e+002  1.178389e-001  1.369663e+002
1.202000e+009  5.290081e-001  -1.829674e+001  4.927862e-001  1.399159e+002  4.887509e-001  1.390230e+002  1.202239e-001  1.361275e+002
1.204000e+009  5.274121e-001  -1.868599e+001  4.899432e-001  1.392239e+002  4.855909e-001  1.391652e+002  1.216918e-001  1.356206e+002
1.206000e+009  5.245799e-001  -1.967834e+001  4.876493e-001  1.389630e+002  4.835054e-001  1.385087e+002  1.224251e-001  1.352880e+002
1.208000e+009  5.219692e-001  -2.028808e+001  4.877873e-001  1.379579e+002  4.833232e-001  1.375434e+002  1.236583e-001  1.343263e+002
1.210000e+009  5.193248e-001  -2.113950e+001  4.842102e-001  1.377581e+002  4.775618e-001  1.376791e+002  1.246572e-001  1.340635e+002
1.212000e+009  5.182637e-001  -2.161980e+001  4.859773e-001  1.370904e+002  4.795314e-001  1.367435e+002  1.274466e-001  1.331687e+002
1.214000e+009  5.149892e-001  -2.253336e+001  4.802837e-001  1.366555e+002  4.753180e-001  1.367126e+002  1.278235e-001  1.326928e+002
1.216000e+009  5.134597e-001  -2.300467e+001  4.824160e-001  1.360185e+002  4.755880e-001  1.357706e+002  1.299397e-001  1.311087e+002
1.218000e+009  5.124782e-001  -2.398205e+001  4.747902e-001  1.353802e+002  4.702342e-001  1.355885e+002  1.298693e-001  1.309101e+002
1.220000e+009  5.088347e-001  -2.458566e+001  4.739682e-001  1.348902e+002  4.679680e-001  1.351431e+002  1.314699e-001  1.308140e+002
1.222000e+009  5.089893e-001  -2.494780e+001  4.750894e-001  1.344705e+002  4.693177e-001  1.344151e+002  1.334412e-001  1.294660e+002
1.224000e+009  5.036322e-001  -2.568531e+001  4.727857e-001  1.339496e+002  4.658597e-001  1.337199e+002  1.333166e-001  1.288751e+002
1.226000e+009  5.039092e-001  -2.646595e+001  4.689937e-001  1.333028e+002  4.646322e-001  1.336805e+002  1.356644e-001  1.293889e+002
1.228000e+009  5.006298e-001  -2.712514e+001  4.681464e-001  1.328138e+002  4.638945e-001  1.329957e+002  1.372879e-001  1.285661e+002
1.230000e+009  4.996526e-001  -2.763991e+001  4.642394e-001  1.324630e+002  4.606050e-001  1.321339e+002  1.372298e-001  1.266760e+002
1.232000e+009  4.962867e-001  -2.858530e+001  4.623067e-001  1.319791e+002  4.605271e-001  1.319677e+002  1.394627e-001  1.266545e+002
1.234000e+009  4.967553e-001  -2.920573e+001  4.592315e-001  1.310822e+002  4.590146e-001  1.316250e+002  1.402433e-001  1.257787e+002
1.236000e+009  4.918395e-001  -2.948275e+001  4.598029e-001  1.303269e+002  4.566408e-001  1.311051e+002  1.404540e-001  1.258149e+002
1.238000e+009  4.888189e-001  -3.050787e+001  4.560565e-001  1.303190e+002  4.551113e-001  1.303217e+002  1.418364e-001  1.242239e+002
1.240000e+009  4.867785e-001  -3.098654e+001  4.551702e-001  1.292116e+002  4.534192e-001  1.299532e+002  1.432961e-001  1.246155e+002
1.242000e+009  4.855085e-001  -3.196132e+001  4.517438e-001  1.293046e+002  4.518528e-001  1.293260e+002  1.455759e-001  1.236064e+002
1.244000e+009  4.824871e-001  -3.239353e+001  4.504107e-001  1.281883e+002  4.468565e-001  1.285778e+002  1.442118e-001  1.225850e+002
1.246000e+009  4.785285e-001  -3.324736e+001  4.457024e-001  1.283378e+002  4.475475e-001  1.282360e+002  1.458083e-001  1.227257e+002
1.248000e+009  4.780991e-001  -3.376718e+001  4.468133e-001  1.271546e+002  4.443434e-001  1.274742e+002  1.466923e-001  1.213512e+002
1.250000e+009  4.752678e-001  -3.462867e+001  4.425286e-001  1.269939e+002  4.430305e-001  1.270564e+002  1.470488e-001  1.211741e+002
1.252000e+009  4.719581e-001  -3.506544e+001  4.402895e-001  1.262597e+002  4.394295e-001  1.263795e+002  1.489352e-001  1.200470e+002
1.254000e+009  4.699955e-001  -3.611486e+001  4.378615e-001  1.259946e+002  4.390258e-001  1.258134e+002  1.494464e-001  1.197022e+002
1.256000e+009  4.669273e-001  -3.642831e+001  4.353130e-001  1.253255e+002  4.357340e-001  1.253590e+002  1.507795e-001  1.192220e+002
1.258000e+009  4.669402e-001  -3.741686e+001  4.348410e-001  1.249795e+002  4.324457e-001  1.247937e+002  1.501440e-001  1.184418e+002
1.260000e+009  4.630409e-001  -3.810339e+001  4.319088e-001  1.244668e+002  4.327218e-001  1.243037e+002  1.528824e-001  1.178256e+002
1.262000e+009  4.601184e-001  -3.863764e+001  4.279089e-001  1.241043e+002  4.272454e-001  1.235089e+002  1.525121e-001  1.170864e+002
1.264000e+009  4.569738e-001  -3.916737e+001  4.264549e-001  1.234253e+002  4.254829e-001  1.230242e+002  1.541615e-001  1.166085e+002
1.266000e+009  4.597244e-001  -3.914995e+001  4.289013e-001  1.229751e+002  4.385505e-001  1.223738e+002  1.565695e-001  1.162953e+002
1.268000e+009  4.527957e-001  -4.053531e+001  4.235757e-001  1.225240e+002  4.223410e-001  1.221016e+002  1.552888e-001  1.155241e+002
1.270000e+009  4.503571e-001  -4.141272e+001  4.186116e-001  1.219039e+002  4.178995e-001  1.213435e+002  1.556793e-001  1.147931e+002
1.272000e+009  4.482011e-001  -4.218670e+001  4.154901e-001  1.213087e+002  4.163499e-001  1.208575e+002  1.575888e-001  1.141139e+002
1.274000e+009  4.478667e-001  -4.264485e+001  4.156104e-001  1.212267e+002  4.146567e-001  1.207763e+002  1.585070e-001  1.137950e+002
1.276000e+009  4.434626e-001  -4.334672e+001  4.144084e-001  1.208180e+002  4.110673e-001  1.202470e+002  1.583548e-001  1.133551e+002
1.278000e+009  4.398596e-001  -4.402768e+001  4.095153e-001  1.198319e+002  4.086931e-001  1.197519e+002  1.589434e-001  1.124970e+002
1.280000e+009  4.371156e-001  -4.456225e+001  4.105720e-001  1.198097e+002  4.066050e-001  1.192995e+002  1.593250e-001  1.121430e+002
1.282000e+009  4.355323e-001  -4.537536e+001  4.070902e-001  1.190016e+002  4.050756e-001  1.188107e+002  1.607475e-001  1.115740e+002
1.284000e+009  4.327013e-001  -4.595248e+001  4.047624e-001  1.187410e+002  4.006083e-001  1.184313e+002  1.611830e-001  1.109736e+002
1.286000e+009  4.293302e-001  -4.659970e+001  4.017920e-001  1.181889e+002  4.003047e-001  1.179530e+002  1.606217e-001  1.099449e+002
1.288000e+009  4.266606e-001  -4.716035e+001  4.012353e-001  1.178252e+002  3.957110e-001  1.175817e+002  1.624012e-001  1.097012e+002
